! Filename:  P:\Prog\Test\Noise\ATS_data\Testdata_Net\Split files Spar\BFU725F_CS1566_A2_2V_2mA_25mA_Bias2_D.s2p
! Date/Time: Mon 09/Aug/2010 10:50:37
! BFU725F_CS1566_A2_2V_2mA_25mA_Bias2_R.s2p
! MDIF S-parameter v. bias file
! BFU725F_CS1566_A2_2V_2mA_25mA
! Date/time Mon Jul 19 09:57:02 2010
! VAR V_out= 2.0000
! VAR I_out= 4.9950
! VAR V_in= 0.8023
! VAR I_in= 0.0144
! Device data file deembeded for feedlines and parallel
! Original file: \Split files Spar\BFU725F_CS1566_A2_2V_2mA_25mA_Bias2_R.s2p
! Feed-files: PR003V01_101208_Feed1.s2p, PR003V01_101208_Feed2.s2p
! Parallel-file: PR003V01_101208_Par.s2p
# MHz S MA R 50
!  Freq-MHz   S11-mag  S11-arg   S21-mag  S21-arg   S12-mag  S12-arg   S22-mag  S22-arg
         40   0.95254    -1.87    14.422   178.17 0.0017827    87.43   0.99788    -1.19
         50    0.9486    -3.13    14.596   176.44 0.0014599    96.21   0.99787    -1.53
         60   0.95056    -2.70    14.254   177.61  0.002592    95.36   0.99832    -1.81
         70   0.95408    -3.40     14.39   177.17 0.0031115    87.75   0.99836    -2.13
         80   0.95269    -3.98    14.399   176.77 0.0035211    87.15   0.99837    -2.47
         90   0.95384    -4.47    14.416   176.40 0.0039226    87.63   0.99806    -2.80
        100    0.9545    -4.89    14.388   176.28 0.0042931    87.21   0.99777    -3.12
        120   0.95274    -5.94    14.386   175.38 0.0053126    86.08   0.99739    -3.76
        140   0.95307    -6.89    14.388   174.65 0.0062134    85.67   0.99693    -4.41
        160   0.95212    -7.84    14.344   173.99  0.007075    84.96   0.99605    -5.04
        180   0.95237    -8.79     14.32   173.25 0.0079764    83.94   0.99549    -5.68
        200   0.95095    -9.82    14.313   172.45 0.0087782    84.03   0.99471    -6.31
        220   0.95046   -10.80     14.35   171.55 0.0097386    83.64   0.99356    -6.94
        240   0.94861   -11.79    14.332   170.76  0.010591    82.72   0.99238    -7.57
        260   0.94842   -12.76    14.304   169.86  0.011464    82.28   0.99137    -8.20
        280   0.94659   -13.73    14.316   169.14  0.012288    81.68   0.99021    -8.84
        300   0.94755   -14.76    14.282   168.55  0.013141    80.81   0.98908    -9.44
        320   0.94531   -15.66    14.259   167.82  0.014084    80.29   0.98761   -10.07
        340   0.94448   -16.60    14.241   167.00  0.014859    79.77   0.98608   -10.70
        360   0.94361   -17.60    14.213   166.28  0.015686    79.02   0.98471   -11.32
        380   0.94176   -18.55    14.178   165.47  0.016622    78.72    0.9828   -11.94
        400   0.94124   -19.55    14.218   164.93  0.017471    78.11   0.98123   -12.55
        420   0.94076   -20.53    14.167   164.03   0.01822    77.29   0.97963   -13.16
        440   0.93898   -21.49    14.138   163.36  0.019177    76.96   0.97792   -13.78
        460   0.93669   -22.41    14.107   162.58  0.019935    76.41     0.976   -14.40
        480   0.93427   -23.45    14.082   161.77  0.020764    75.77   0.97425   -15.02
        500   0.93273   -24.39    14.032   161.10  0.021554    75.25   0.97202   -15.63
        550   0.92842   -26.73    13.967   159.26  0.023695    73.69   0.96633   -17.16
        600   0.92387   -29.07    13.882   157.44   0.02561    72.26   0.96026   -18.64
        650   0.92048   -31.42    13.799   155.78  0.027601    70.82    0.9542   -20.13
        700   0.91495   -33.73    13.695   153.96   0.02952    69.37    0.9471   -21.63
        750    0.9085   -36.13    13.594   152.17  0.031389    68.10   0.93963   -23.03
        800    0.9038   -38.39      13.5   150.44  0.033194    66.71   0.93262   -24.47
        850   0.89676   -40.58    13.368   148.64  0.034955    65.35   0.92502   -25.88
        900   0.89197   -42.92     13.27   146.94  0.036798    64.05    0.9171   -27.28
        950    0.8849   -45.17    13.143   145.22  0.038457    62.69   0.90883   -28.67
       1000   0.87899   -47.39    13.042   143.60  0.040116    61.37     0.901   -30.03
       1050   0.87268   -49.50     12.93   141.98  0.041749    60.16   0.89248   -31.40
       1100   0.86741   -51.73    12.798   140.37  0.043238    58.94   0.88356   -32.70
       1150   0.86005   -53.88    12.674   138.76  0.044783    57.81   0.87491   -33.96
       1200   0.85312   -55.89    12.546   137.19  0.046307    56.52   0.86584   -35.28
       1250   0.84622   -58.11    12.425   135.57  0.047747    55.29   0.85663   -36.57
       1300   0.83973   -60.17    12.278   134.09  0.049106    54.07   0.84753   -37.81
       1350   0.83367   -62.30    12.167   132.54  0.050435    52.94   0.83816   -39.06
       1400   0.82578   -64.26    12.034   131.03   0.05177    51.88   0.82901   -40.29
       1450   0.81841   -66.44    11.906   129.46  0.053021    50.67   0.81979   -41.50
       1500   0.81135   -68.37    11.761   128.03    0.0543    49.64   0.81019   -42.65
       1550   0.80678   -70.39    11.643   126.65  0.055384    48.56   0.80127   -43.78
       1600   0.79808   -72.39    11.502   125.14  0.056522    47.49   0.79177   -44.97
       1650   0.79125   -74.28    11.366   123.79  0.057598    46.45   0.78198   -46.11
       1700   0.78401   -76.23    11.239   122.32  0.058475    45.49   0.77235   -47.18
       1750   0.77716   -78.14    11.101   120.92  0.059572    44.44    0.7633   -48.29
       1800     0.772   -80.08    10.981   119.58  0.060458    43.44   0.75412   -49.31
       1850   0.76576   -81.93    10.845   118.24   0.06145    42.52   0.74455   -50.42
       1900   0.75913   -83.70    10.722   116.96  0.062345    41.66   0.73603   -51.42
       1950   0.75311   -85.47    10.598   115.69  0.063252    40.72   0.72737   -52.47
       2000   0.74466   -87.42    10.455   114.32  0.063983    39.74   0.71858   -53.53
       2050   0.74151   -89.26    10.339   113.03  0.064791    38.95   0.71012   -54.52
       2100   0.73552   -90.86    10.214   111.86  0.065519    38.07   0.70117   -55.58
       2150   0.72877   -92.58    10.083   110.58  0.066271    37.26    0.6916   -56.55
       2200   0.72253   -94.35    9.9705   109.41   0.06694    36.42   0.68266   -57.39
       2250   0.71516   -95.92    9.8399   108.19  0.067621    35.57   0.67448   -58.41
       2300   0.70907   -97.73    9.7194   106.99  0.068267    34.75   0.66611   -59.44
       2350   0.70303   -99.47    9.5716   105.81  0.068885    33.99   0.65751   -60.49
       2400    0.7001  -101.04    9.4571   104.77  0.069482    33.38   0.64778   -61.47
       2450   0.69459  -102.78    9.3514   103.72  0.070128    32.63   0.63793   -62.28
       2500   0.68586  -104.43    9.2486   102.53  0.070727    31.76   0.62985   -63.04
       2600   0.67938  -107.55    9.0348   100.35  0.071584    30.26   0.61358   -64.73
       2700   0.66995  -110.72    8.8216    98.24  0.072454    28.94   0.59688   -66.28
       2800   0.65816  -113.85    8.6108    96.18  0.073363    27.64   0.58204   -67.86
       2900   0.64898  -116.59    8.4236    94.21  0.073938    26.22   0.56786   -69.32
       3000   0.64141  -119.29    8.2316    92.19   0.07467    25.10   0.55597   -70.89
       3100   0.63578  -122.37    8.0546    90.25  0.075096    23.90   0.54254   -72.48
       3200   0.62759  -125.11    7.8732    88.37  0.075694    22.82   0.52911   -74.00
       3300   0.62162  -128.03    7.7018    86.54  0.076174    21.80   0.51601   -75.58
       3400   0.61549  -130.72    7.5534    84.66  0.076744    20.79     0.504   -77.14
       3500   0.60985  -133.39    7.3952    82.81    0.0772    19.79   0.49209   -78.55
       3600   0.60279  -135.98    7.2346    81.08  0.077526    18.91   0.48044   -79.90
       3700   0.59958  -138.49    7.0997    79.27  0.077813    18.04   0.46886   -81.22
       3800    0.5935  -141.22    6.9537    77.48  0.078205    17.09   0.45777   -82.87
       3900    0.5901  -143.66     6.819    75.81  0.078555    16.31   0.44852   -84.35
       4000   0.58441  -146.32    6.6791    74.04   0.07886    15.32   0.43787   -85.80
       4100   0.58248  -148.67    6.5528    72.39  0.078923    14.66   0.42683   -87.05
       4200   0.57795  -151.19    6.4281    70.75  0.079071    13.89   0.41593   -88.55
       4300   0.57372  -153.36    6.3058    69.05  0.079295    13.25   0.40807   -90.09
       4400   0.56994  -155.81    6.1907    67.50   0.07961    12.38   0.39919   -91.46
       4500   0.56772  -157.93    6.0771    65.90  0.079812    11.84   0.39002   -92.65
       4600   0.56664  -160.25    5.9596    64.24  0.079909    11.10   0.38092   -94.12
       4700   0.56364  -162.47    5.8546    62.68  0.079832    10.51   0.37311   -95.72
       4800    0.5613  -164.70    5.7467    61.15  0.079977     9.87   0.36568   -97.18
       4900   0.55893  -166.79    5.6505    59.54  0.080015     9.32    0.3578   -98.48
       5000   0.55767  -168.89     5.552    58.11  0.080336     8.71   0.34981  -100.01
       5200   0.55515  -172.94    5.3574    55.12  0.080315     7.84   0.33585  -103.13
       5400   0.55312  -177.03    5.1884    52.13  0.080526     6.72   0.32213  -106.05
       5600   0.55143   179.13    5.0117    49.29  0.080506     5.90   0.30897  -109.20
       5800    0.5506   175.43    4.8581    46.37  0.080676     5.17   0.29769  -112.39
       6000   0.55072   171.67    4.7005    43.64  0.080613     4.41   0.28637  -115.69
       6200   0.55063   168.25    4.5601    40.92  0.080601     3.69   0.27563  -119.32
       6400   0.55193   164.69     4.417    38.13  0.080648     3.07   0.26621  -122.95
       6600   0.55414   161.24    4.2857    35.49  0.080746     2.53   0.25617  -126.79
       6800   0.55592   158.13    4.1735    32.85  0.081044     1.95   0.24785  -130.71
       7000   0.55786   155.10    4.0512    30.36  0.081198     1.61   0.24079  -134.57
       7200   0.56139   152.16    3.9518    27.64  0.081549     1.36   0.23383  -139.12
       7400   0.56547   149.24    3.8459    25.20  0.081962     0.89   0.22851  -142.40
       7600   0.56842   146.20    3.7499    22.31  0.082548     0.60   0.22445  -147.91
       7800   0.57016   143.21    3.6423    19.84  0.082888     0.26   0.21922  -151.96
       8000    0.5774   140.41    3.5707    17.20  0.083715     0.01   0.21787  -157.05
       8200   0.58241   137.66    3.4765    14.65  0.084451    -0.32   0.21586  -161.96
       8400   0.58819   135.17     3.396    12.22   0.08508    -0.50   0.21536  -165.99
       8600   0.59456   132.54    3.3151     9.33  0.086161    -1.04    0.2168  -171.55
       8800   0.59772   129.70    3.2168     6.71  0.087212    -1.54   0.21923  -176.45
       9000   0.60132   127.62    3.1318     4.78  0.087727    -1.58   0.21914   178.32
       9200   0.60738   125.20    3.0859     2.23  0.089548    -2.01   0.22314   174.88
       9400   0.61443   122.62    3.0117    -0.40  0.090304    -2.66    0.2281   169.98
       9600    0.6222   120.15    2.9499    -3.09  0.091441    -3.24    0.2349   164.97
       9800    0.6236   117.61    2.8554    -5.27  0.091908    -3.40   0.23594   161.02
      10000   0.63169   115.64    2.8112    -7.91  0.094656    -3.58    0.2499   156.67
      10200   0.63919   112.94    2.7305   -10.52  0.095933    -4.83   0.25873   151.53
      10400   0.64414   110.95     2.663   -12.74  0.096748    -5.53   0.26366   146.41
      10600   0.64568   108.86    2.5962   -15.04  0.098303    -6.21   0.27269   142.75
      10800   0.64973   107.05    2.5474   -16.93  0.099523    -6.69   0.27738   138.69
      11000   0.65349   105.03    2.5103   -19.38   0.10085    -7.33   0.28952   135.73
      11200   0.66887   103.69    2.4815   -21.84   0.10311    -7.00    0.2973   133.32
      11400   0.68075   100.83    2.4094   -25.04   0.10565    -8.74   0.31741   129.60
      11600   0.68765    98.76    2.3417   -27.35   0.10701   -10.01   0.32826   125.76
      11800   0.69227    96.93     2.283   -29.59   0.10819   -11.06    0.3409   122.13
      12000   0.69606    95.22    2.2331   -31.67   0.10909   -11.87   0.35402   118.61
      12200   0.70908    93.51       2.2   -33.85   0.11047   -12.43   0.36205   115.39
      12400    0.7191    91.07    2.1535   -36.73   0.11345   -13.23   0.37712   112.75
      12600   0.72747    88.96    2.0917   -39.12   0.11549   -14.70    0.3859   109.78
      12800   0.73727    87.21    2.0397   -41.14   0.11706   -15.88   0.40345   107.27
      13000   0.74285    85.35     2.003   -43.55   0.11942   -17.29    0.4113   104.44
      13200   0.74906    84.04    1.9586   -45.49     0.121   -18.80   0.42744   102.13
      13400   0.75294    82.00    1.9319   -47.97   0.12277   -20.33   0.43954    99.53
      13600   0.76004    79.80    1.8793   -50.45   0.12374   -21.88   0.45584    97.18
      13800   0.76307    77.67     1.832   -52.80   0.12498   -22.95   0.46923    94.37
      14000    0.7744    75.93    1.7878   -54.97   0.12598   -24.79   0.48452    91.91
      14200   0.78278    74.24    1.7575   -57.20    0.1254   -25.82   0.49891    88.90
      14400    0.7852    71.98    1.7146   -59.88   0.12691   -26.75   0.50908    86.90
      14600   0.79012    70.45    1.6725   -61.69   0.12828   -27.82   0.52494    84.48
      14800   0.79333    68.54    1.6296   -63.91   0.13032   -28.77   0.53613    82.37
      15000   0.80219    67.18    1.5871   -65.89   0.13243   -30.70   0.55292    80.26
      15200   0.81012    65.57    1.5617   -67.95   0.13349   -32.45   0.56375    78.28
      15400    0.8184    63.91    1.5278   -70.28   0.13355   -34.13   0.58203    76.06
      15600   0.81994    62.82    1.5008   -72.32   0.13499   -35.70   0.59193    74.00
      15800   0.83113    60.77    1.4661   -74.91   0.13456   -37.73   0.60908    71.65
      16000   0.83401    59.23    1.4286   -77.16   0.13442   -39.03   0.61809    69.50
      16200   0.84168    57.74    1.3976   -79.00   0.13406   -40.44   0.63105    66.99
      16400   0.85033    56.05    1.3604   -81.49   0.13414   -41.46   0.63743    64.85
      16600   0.85257    54.51    1.3313   -83.56   0.13423   -42.96   0.64495    63.13
      16800    0.8596    53.09    1.2933   -86.00   0.13302   -43.85   0.65368    60.96
      17000   0.86048    51.51     1.261   -87.70   0.13368   -44.90   0.66606    59.80
      17200   0.86031    50.06    1.2251   -90.00   0.13511   -45.38   0.67476    57.38
      17400   0.86677    48.17    1.2036   -91.74   0.13565   -47.20   0.68511    55.91
      17600   0.86921    46.21    1.1726   -94.08   0.13544   -47.07   0.69556    53.58
      17800   0.86523    44.87    1.1408   -95.78   0.14023   -48.54   0.69939    51.42
      18000   0.88042    43.83    1.1028   -97.75   0.14049   -49.74   0.69754    49.67
      18200   0.88548    42.08    1.0933   -99.85   0.14177   -53.00   0.70782    48.17
      18400   0.89142    41.08    1.0477  -102.01   0.13868   -52.97   0.70824    46.65
      18600   0.88301    40.02    1.0249  -103.31   0.14197   -54.38   0.71655    45.47
      18800   0.89861    38.42   0.98868  -105.61   0.14057   -56.29   0.72004    43.65
      19000   0.90724    36.43   0.96376  -106.88   0.14003   -57.15   0.72168    43.15
      19200   0.91072    34.68   0.92988  -108.32   0.14113   -56.81   0.73469    41.55
      19400   0.90923    33.39   0.91405  -109.62   0.14733   -59.51   0.73484    40.72
      19600   0.92186    32.38   0.89996  -111.48   0.14407   -61.91   0.74906    39.17
      19800   0.92883    31.04   0.87982  -113.54   0.14059   -62.58   0.75433    37.85
      20000   0.92047    29.02   0.84558  -115.08   0.14244   -62.42   0.75666    36.28
      20200   0.92203    27.78   0.83331  -116.35   0.14438   -62.06   0.75706    35.51
      20400   0.92485    26.42   0.81348  -117.54    0.1536   -64.15   0.76696    34.94
      20600   0.93021    24.28   0.79884  -118.92   0.15631   -67.05   0.77437    34.34
      20800   0.91327    22.93   0.77899  -120.63   0.16075   -69.23   0.79578    32.95
      21000   0.91264    22.40   0.77254  -122.52   0.15895   -72.99   0.80695    31.09
      21200   0.91858    20.99   0.75045  -124.24   0.16073   -75.67   0.81452    29.98
      21400   0.90665    19.66   0.73861  -125.74   0.16119   -76.81   0.81654    28.05
      21600   0.89753    18.40   0.71562  -127.87   0.15883   -81.71   0.81954    26.62
      21800   0.89022    18.29   0.70221  -128.91   0.15636   -82.97   0.81734    25.96
      22000    0.9017    17.22   0.68022  -131.10   0.15263   -87.46   0.82743    24.74
      22200   0.90329    15.91   0.66753  -132.18   0.14721   -86.83   0.82647    23.94
      22400   0.90397    14.92   0.63983  -133.91   0.14254   -87.47   0.83211    23.16
      22600   0.90553    14.32   0.64573  -133.98   0.14264   -89.54   0.84822    22.86
      22800   0.91801    13.79   0.62912  -137.12   0.14128   -88.23   0.86025    20.98
      23000    0.9228    12.78   0.62418  -137.10   0.14644   -89.54   0.86803    20.12
      23200   0.93705    11.44   0.60662  -141.54   0.14534   -92.27   0.86919    18.05
      23400   0.93321     9.74   0.59377  -141.70   0.14175   -94.87   0.87696    17.80
      23600   0.93199     8.71   0.57852  -145.02   0.13753   -95.76   0.88229    15.93
      23800   0.92859     7.27   0.55052  -144.89   0.13396   -95.53   0.88748    15.33
      24000   0.93103     5.77   0.54538  -148.09   0.13507   -97.21   0.90265    13.37
      24200   0.95267     4.94    0.5218  -148.37   0.13583   -98.34   0.90124    11.69
      24400   0.93319     4.77   0.51134  -151.62   0.12888  -103.11   0.90453    10.35
      24600   0.92404     3.05   0.48462  -151.37    0.1302  -101.31   0.90767     8.71
      24800   0.91567     2.11   0.48247  -153.48   0.12178  -100.95   0.89845     7.34
      25000   0.91922     0.91   0.45666  -153.17   0.13047  -100.76   0.90124     5.99
      25200    0.9278     0.31   0.45337  -153.98   0.13196  -104.95    0.8905     5.66
      25400   0.92715    -0.36   0.43651  -155.33    0.1222  -109.63   0.90528     4.85
      25600   0.91129    -0.85   0.42333  -156.53   0.11478  -107.44   0.90025     4.07
      25800   0.93286    -1.64   0.41449  -156.33     0.116  -107.61   0.92173     2.76
      26000   0.94017    -3.60    0.4108  -158.56   0.11175  -105.20   0.90286     1.45

!  
! Device Noise Parameters
! Freq-MHz   Fmin-dB  Gopt-mag  Gopt-arg   Rn-Ohm_normalized
400	0.380	0.6010	2.85	0.1619
420	0.382	0.5988	3.27	0.1618
440	0.383	0.5966	3.69	0.1617
460	0.385	0.5944	4.11	0.1616
480	0.386	0.5923	4.53	0.1615
500	0.387	0.5901	4.94	0.1614
550	0.391	0.5848	5.99	0.1611
600	0.395	0.5796	7.04	0.1608
650	0.398	0.5745	8.08	0.1605
700	0.402	0.5695	9.12	0.1602
750	0.405	0.5646	10.16	0.1598
800	0.409	0.5597	11.19	0.1594
850	0.412	0.5550	12.23	0.1590
900	0.416	0.5503	13.26	0.1586
950	0.420	0.5457	14.29	0.1582
1000	0.423	0.5411	15.32	0.1577
1050	0.427	0.5366	16.34	0.1572
1100	0.431	0.5322	17.37	0.1567
1150	0.434	0.5279	18.39	0.1562
1200	0.438	0.5236	19.41	0.1556
1250	0.442	0.5193	20.42	0.1550
1300	0.445	0.5151	21.44	0.1544
1350	0.449	0.5110	22.45	0.1538
1400	0.453	0.5069	23.46	0.1532
1450	0.456	0.5028	24.47	0.1526
1500	0.460	0.4988	25.48	0.1519
1550	0.464	0.4948	26.49	0.1513
1600	0.467	0.4909	27.49	0.1506
1650	0.471	0.4870	28.50	0.1499
1700	0.475	0.4832	29.50	0.1492
1750	0.478	0.4793	30.50	0.1484
1800	0.482	0.4755	31.50	0.1477
1850	0.486	0.4718	32.50	0.1469
1900	0.490	0.4681	33.50	0.1461
1950	0.493	0.4643	34.50	0.1454
2000	0.497	0.4607	35.50	0.1446
2050	0.501	0.4570	36.50	0.1437
2100	0.505	0.4534	37.50	0.1429
2150	0.508	0.4498	38.49	0.1421
2200	0.512	0.4462	39.49	0.1412
2250	0.516	0.4427	40.49	0.1404
2300	0.520	0.4391	41.49	0.1395
2350	0.523	0.4356	42.49	0.1386
2400	0.527	0.4321	43.50	0.1377
2450	0.531	0.4287	44.50	0.1368
2500	0.535	0.4252	45.50	0.1359
2600	0.542	0.4184	47.52	0.1341
2700	0.550	0.4116	49.54	0.1322
2800	0.558	0.4049	51.58	0.1303
2900	0.565	0.3983	53.62	0.1283
3000	0.573	0.3918	55.68	0.1264
